
**** 03/14/26 05:14:36 ******* PSpice Lite (March 2016) ******* ID# 10813 ****

 ** Profile: "SCHEMATIC1-test9"  [ D:\University\Habib\Sem 4\Basic Electronics\Lab\CEP\Project-PSpiceFiles\SCHEMATIC1\test9.sim ] 


 ****     CIRCUIT DESCRIPTION


******************************************************************************




** Creating circuit file "test9.cir" 
** WARNING: THIS AUTOMATICALLY GENERATED FILE MAY BE OVERWRITTEN BY SUBSEQUENT SIMULATIONS

*Libraries: 
* Profile Libraries :
* Local Libraries :
* From [PSPICE NETLIST] section of C:\Users\Yousuf Lali\AppData\Roaming\SPB_Data\cdssetup\OrCAD_PSpice\17.2.0\PSpice.ini file:
.lib "nomd.lib" 

*Analysis directives: 
.OPTIONS ADVCONV
.PROBE64 V(alias(*)) I(alias(*)) W(alias(*)) D(alias(*)) NOISE(alias(*)) 
.INC "..\SCHEMATIC1.net" 



**** INCLUDING SCHEMATIC1.net ****
* source PROJECT
X_Q1         N00266 N00240 N10485 awb2n3904 PARAMS:                            
+                 
C_C2         N00240 N00459 1u TC=0
C_C4         N00266 N04044 1u TC=0
R_R1         N00240 N02268  110k TC=0,0 
R_R2         0 N00240  10k TC=0,0 
R_Rc         N00266 N02268  4.2k TC=0,0 
R_RE         0 N10485  390 TC=0,0 
V_V3         N00459 0  
+SIN 0 10mV 1k 0 0 0
V_V4         N02268 0 12Vdc
X_Q2         N02268 N04044 N04464 awb2n3904 PARAMS:                            
+                 
R_CCR2         0 N04044  11k TC=0,0 
R_CCR1         N04044 N02268  11k TC=0,0 
R_CCRE         0 N04464  1k TC=0,0 
C_C5         N04464 N06382 100u TC=0
C_C7         N04044 N04044 1u TC=0
R_CCR3         0 N04044  1MEG TC=0,0 
R_CCR4         0 N06382  1MEG TC=0,0 
C_C8         N05738 N05768 1u TC=0
C_C10         N05768 N05768 1u TC=0
R_CCR7         0 N05768  11k TC=0,0 
X_Q3         N05738 N05918 N058460 awb2n3904 PARAMS:                           
+                  
R_CCR6         0 N05768  1MEG TC=0,0 
R_CCR8         0 N07896  1MEG TC=0,0 
R_CCRE1         0 N05988  1k TC=0,0 
X_Q4         N02268 N05768 N05988 awb2n3904 PARAMS:                            
+                 
R_RE1         0 N058460  330 TC=0,0 
C_C11         N05988 N07896 100u TC=0
R_CCR5         N05768 N02268  11k TC=0,0 
R_Rc1         N05738 N02268  6.3k TC=0,0 
R_R3         N05918 N02268  110k TC=0,0 
C_C9         N05918 N06382 1u TC=0
R_R4         0 N05918  10k TC=0,0 
R_CCR12         0 N07954  11k TC=0,0 
R_R5         N08098 N02268  110k TC=0,0 
R_CCRE2         0 N08164  1k TC=0,0 
C_C15         N08164 N081561 100u TC=0
R_Rc2         N07924 N02268  7.5k TC=0,0 
R_CCR10         N07954 N02268  11k TC=0,0 
R_CCR11         0 N07954  1MEG TC=0,0 
R_RE2         0 N080400  330 TC=0,0 
C_C13         N08098 N07896 1u TC=0
C_C12         N07924 N07954 1u TC=0
R_CCR13         0 N081561  1MEG TC=0,0 
C_C14         N07954 N07954 1u TC=0
X_Q6         N02268 N07954 N08164 awb2n3904 PARAMS:                            
+                 
R_R6         0 N08098  10k TC=0,0 
X_Q5         N07924 N08098 N080400 awb2n3904 PARAMS:                           
+                  

**** RESUMING test9.cir ****
.END

**** 03/14/26 05:14:36 ******* PSpice Lite (March 2016) ******* ID# 10813 ****

 ** Profile: "SCHEMATIC1-test9"  [ D:\University\Habib\Sem 4\Basic Electronics\Lab\CEP\Project-PSpiceFiles\SCHEMATIC1\test9.sim ] 


 ****     BJT MODEL PARAMETERS


******************************************************************************




               X_Q1.model4     X_Q2.model4     X_Q3.model4     X_Q4.model4     
               NPN             NPN             NPN             NPN             
       LEVEL    1               1               1               1            
          IS  172.800000E-18  172.800000E-18  172.800000E-18  172.800000E-18 
          EG    1.206           1.206           1.206           1.206        
          BF  254.395         254.395         254.395         254.395        
          NF     .85             .85             .85             .85         
         VAF   10              10              10              10            
         IKF     .016374         .016374         .016374         .016374     
         ISE    9.974460E-15    9.974460E-15    9.974460E-15    9.974460E-15 
          NE    1.20863         1.20863         1.20863         1.20863      
          BR     .1              .1              .1              .1          
          NR     .891964         .891964         .891964         .891964     
         VAR    7.74046         7.74046         7.74046         7.74046      
         IKR     .163741         .163741         .163741         .163741     
         ISC    9.974460E-15    9.974460E-15    9.974460E-15    9.974460E-15 
          NC    2.84343         2.84343         2.84343         2.84343      
         ISS    0               0               0               0            
          RB   28.3394         28.3394         28.3394         28.3394       
         RBM     .01             .01             .01             .01         
         IRB     .01             .01             .01             .01         
          RE    1.339110E-03    1.339110E-03    1.339110E-03    1.339110E-03 
          RC    2.08353         2.08353         2.08353         2.08353      
         CJE    4.566140E-12    4.566140E-12    4.566140E-12    4.566140E-12 
         VJE     .4              .4              .4              .4          
         MJE     .245712         .245712         .245712         .245712     
         CJC    3.724850E-12    3.724850E-12    3.724850E-12    3.724850E-12 
         VJC     .4              .4              .4              .4          
         MJC     .236002         .236002         .236002         .236002     
        XCJC     .8              .8              .8              .8          
         CJS    0               0               0               0            
         VJS     .75             .75             .75             .75         
         MJS     .5              .5              .5              .5          
          FC     .519152         .519152         .519152         .519152     
          TF  481.412000E-12  481.412000E-12  481.412000E-12  481.412000E-12 
         XTF     .9628           .9628           .9628           .9628       
         VTF    9.52193         9.52193         9.52193         9.52193      
         ITF     .011333         .011333         .011333         .011333     
          TR    1.303990E-06    1.303990E-06    1.303990E-06    1.303990E-06 
         XTB    1.20888         1.20888         1.20888         1.20888      
         XTI    1.34879         1.34879         1.34879         1.34879      
          KF    0               0               0               0            
          AF    1               1               1               1            
          CN    2.42            2.42            2.42            2.42         
           D     .87             .87             .87             .87         


               X_Q6.model4     X_Q5.model4     
               NPN             NPN             
       LEVEL    1               1            
          IS  172.800000E-18  172.800000E-18 
          EG    1.206           1.206        
          BF  254.395         254.395        
          NF     .85             .85         
         VAF   10              10            
         IKF     .016374         .016374     
         ISE    9.974460E-15    9.974460E-15 
          NE    1.20863         1.20863      
          BR     .1              .1          
          NR     .891964         .891964     
         VAR    7.74046         7.74046      
         IKR     .163741         .163741     
         ISC    9.974460E-15    9.974460E-15 
          NC    2.84343         2.84343      
         ISS    0               0            
          RB   28.3394         28.3394       
         RBM     .01             .01         
         IRB     .01             .01         
          RE    1.339110E-03    1.339110E-03 
          RC    2.08353         2.08353      
         CJE    4.566140E-12    4.566140E-12 
         VJE     .4              .4          
         MJE     .245712         .245712     
         CJC    3.724850E-12    3.724850E-12 
         VJC     .4              .4          
         MJC     .236002         .236002     
        XCJC     .8              .8          
         CJS    0               0            
         VJS     .75             .75         
         MJS     .5              .5          
          FC     .519152         .519152     
          TF  481.412000E-12  481.412000E-12 
         XTF     .9628           .9628       
         VTF    9.52193         9.52193      
         ITF     .011333         .011333     
          TR    1.303990E-06    1.303990E-06 
         XTB    1.20888         1.20888      
         XTI    1.34879         1.34879      
          KF    0               0            
          AF    1               1            
          CN    2.42            2.42         
           D     .87             .87         


**** 03/14/26 05:14:36 ******* PSpice Lite (March 2016) ******* ID# 10813 ****

 ** Profile: "SCHEMATIC1-test9"  [ D:\University\Habib\Sem 4\Basic Electronics\Lab\CEP\Project-PSpiceFiles\SCHEMATIC1\test9.sim ] 


 ****     SMALL SIGNAL BIAS SOLUTION       TEMPERATURE =   27.000 DEG C


******************************************************************************



 NODE   VOLTAGE     NODE   VOLTAGE     NODE   VOLTAGE     NODE   VOLTAGE


(N00240)     .9328 (N00266)    8.7641 (N00459)    0.0000 (N02268)   12.0000     

(N04044)    5.7478 (N04464)    5.0705 (N05738)    6.6321 (N05768)    5.7478     

(N05918)     .9189 (N05988)    5.0705 (N06382)    0.0000 (N07896)    0.0000     

(N07924)    5.7101 (N07954)    5.7478 (N08098)     .9157 (N08164)    5.0705     

(N10485)     .3033 (N058460)     .2841                   (N080400)     .2798    

(N081561)    0.0000                   




    VOLTAGE SOURCE CURRENTS
    NAME         CURRENT

    V_V3         0.000E+00
    V_V4        -1.956E-02

    TOTAL POWER DISSIPATION   2.35E-01  WATTS



          JOB CONCLUDED

**** 03/14/26 05:14:36 ******* PSpice Lite (March 2016) ******* ID# 10813 ****

 ** Profile: "SCHEMATIC1-test9"  [ D:\University\Habib\Sem 4\Basic Electronics\Lab\CEP\Project-PSpiceFiles\SCHEMATIC1\test9.sim ] 


 ****     JOB STATISTICS SUMMARY


******************************************************************************



  Total job time (using Solver 1)   =         .02
