
**** 03/14/26 16:16:35 ******* PSpice Lite (March 2016) ******* ID# 10813 ****

 ** Profile: "SCHEMATIC1-dccheck"  [ D:\University\Habib\Sem 4\Basic Electronics\Lab\CEP\Project-PSpiceFiles\newtry-PSpiceFiles\SCHEM


 ****     CIRCUIT DESCRIPTION


******************************************************************************




** Creating circuit file "dccheck.cir" 
** WARNING: THIS AUTOMATICALLY GENERATED FILE MAY BE OVERWRITTEN BY SUBSEQUENT SIMULATIONS

*Libraries: 
* Profile Libraries :
* Local Libraries :
* From [PSPICE NETLIST] section of C:\Users\Yousuf Lali\AppData\Roaming\SPB_Data\cdssetup\OrCAD_PSpice\17.2.0\PSpice.ini file:
.lib "nomd.lib" 

*Analysis directives: 
.OPTIONS ADVCONV
.PROBE64 V(alias(*)) I(alias(*)) W(alias(*)) D(alias(*)) NOISE(alias(*)) 
.INC "..\SCHEMATIC1.net" 



**** INCLUDING SCHEMATIC1.net ****
* source NEWTRY
R_Rc         N29048 N28992  4.2k TC=0,0 
C_C4         N29048 N29632 15u TC=0
C_C2         N29054 N29116 15u TC=0
X_Q1         N29048 N29054 N29134 awb2n3904 PARAMS:                            
+                 
V_V3         N29116 0  
+SIN 0 10mV 1k 0 0 0
R_R1         N29054 N28992  101k TC=0,0 
R_R2         0 N29054  10k TC=0,0 
R_RE         0 N29134  390 TC=0,0 
V_V4         N28992 0 12Vdc
X_Q2         N28992 N29632 N29766 awb2n3904 PARAMS:                            
+                 
R_R3         N29632 N28992  100k TC=0,0 
R_R4         0 N29632  100k TC=0,0 
R_R5         0 N29766  1k TC=0,0 
R_R6         0 N297030  100k TC=0,0 
C_C5         N29766 N297030 15u TC=0

**** RESUMING dccheck.cir ****
.END

**** 03/14/26 16:16:35 ******* PSpice Lite (March 2016) ******* ID# 10813 ****

 ** Profile: "SCHEMATIC1-dccheck"  [ D:\University\Habib\Sem 4\Basic Electronics\Lab\CEP\Project-PSpiceFiles\newtry-PSpiceFiles\SCHEM


 ****     BJT MODEL PARAMETERS


******************************************************************************




               X_Q1.model4     X_Q2.model4     
               NPN             NPN             
       LEVEL    1               1            
          IS  172.800000E-18  172.800000E-18 
          EG    1.206           1.206        
          BF  254.395         254.395        
          NF     .85             .85         
         VAF   10              10            
         IKF     .016374         .016374     
         ISE    9.974460E-15    9.974460E-15 
          NE    1.20863         1.20863      
          BR     .1              .1          
          NR     .891964         .891964     
         VAR    7.74046         7.74046      
         IKR     .163741         .163741     
         ISC    9.974460E-15    9.974460E-15 
          NC    2.84343         2.84343      
         ISS    0               0            
          RB   28.3394         28.3394       
         RBM     .01             .01         
         IRB     .01             .01         
          RE    1.339110E-03    1.339110E-03 
          RC    2.08353         2.08353      
         CJE    4.566140E-12    4.566140E-12 
         VJE     .4              .4          
         MJE     .245712         .245712     
         CJC    3.724850E-12    3.724850E-12 
         VJC     .4              .4          
         MJC     .236002         .236002     
        XCJC     .8              .8          
         CJS    0               0            
         VJS     .75             .75         
         MJS     .5              .5          
          FC     .519152         .519152     
          TF  481.412000E-12  481.412000E-12 
         XTF     .9628           .9628       
         VTF    9.52193         9.52193      
         ITF     .011333         .011333     
          TR    1.303990E-06    1.303990E-06 
         XTB    1.20888         1.20888      
         XTI    1.34879         1.34879      
          KF    0               0            
          AF    1               1            
          CN    2.42            2.42         
           D     .87             .87         


**** 03/14/26 16:16:35 ******* PSpice Lite (March 2016) ******* ID# 10813 ****

 ** Profile: "SCHEMATIC1-dccheck"  [ D:\University\Habib\Sem 4\Basic Electronics\Lab\CEP\Project-PSpiceFiles\newtry-PSpiceFiles\SCHEM


 ****     SMALL SIGNAL BIAS SOLUTION       TEMPERATURE =   27.000 DEG C


******************************************************************************



 NODE   VOLTAGE     NODE   VOLTAGE     NODE   VOLTAGE     NODE   VOLTAGE


(N28992)   12.0000 (N29048)    8.0963 (N29054)    1.0007 (N29116)    0.0000     

(N29134)     .3659 (N29632)    4.5445 (N29766)    3.8762 (N297030)    0.0000    




    VOLTAGE SOURCE CURRENTS
    NAME         CURRENT

    V_V3         0.000E+00
    V_V4        -4.960E-03

    TOTAL POWER DISSIPATION   5.95E-02  WATTS



          JOB CONCLUDED

**** 03/14/26 16:16:35 ******* PSpice Lite (March 2016) ******* ID# 10813 ****

 ** Profile: "SCHEMATIC1-dccheck"  [ D:\University\Habib\Sem 4\Basic Electronics\Lab\CEP\Project-PSpiceFiles\newtry-PSpiceFiles\SCHEM


 ****     JOB STATISTICS SUMMARY


******************************************************************************



  Total job time (using Solver 1)   =         .02
