
**** 03/14/26 05:37:22 ******* PSpice Lite (March 2016) ******* ID# 10813 ****

 ** Profile: "SCHEMATIC1-Test1"  [ D:\University\Habib\Sem 4\Basic Electronics\Lab\CEP\Project-PSpiceFiles\SCHEMATIC1\Test1.sim ] 


 ****     CIRCUIT DESCRIPTION


******************************************************************************




** Creating circuit file "Test1.cir" 
** WARNING: THIS AUTOMATICALLY GENERATED FILE MAY BE OVERWRITTEN BY SUBSEQUENT SIMULATIONS

*Libraries: 
* Profile Libraries :
* Local Libraries :
* From [PSPICE NETLIST] section of C:\Users\Yousuf Lali\AppData\Roaming\SPB_Data\cdssetup\OrCAD_PSpice\17.2.0\PSpice.ini file:
.lib "nomd.lib" 

*Analysis directives: 
.TRAN  0 15ms 0 1u 
.OPTIONS ADVCONV
.PROBE64 V(alias(*)) I(alias(*)) W(alias(*)) D(alias(*)) NOISE(alias(*)) 
.INC "..\SCHEMATIC1.net" 



**** INCLUDING SCHEMATIC1.net ****
* source PROJECT
X_Q1         N00530 N09511 N10836 awb2n3904 PARAMS:                            
+                 
C_C2         N09511 N00459 1u TC=0
C_C4         N00530 N04234 1u TC=0
R_R1         N09511 N02280  110k TC=0,0 
R_R2         0 N09511  10k TC=0,0 
R_Rc         N00530 N02280  4.2k TC=0,0 
R_RE         0 N10836  390 TC=0,0 
V_V3         N00459 0  
+SIN 0 10mV 1k 0 0 0
V_V4         N02280 0 12Vdc
X_Q2         N02280 N04054 N24772 awb2n3904 PARAMS:                            
+                 
R_CCR2         0 N04054  11k TC=0,0 
R_CCR1         N04054 N02280  11k TC=0,0 
R_CCRE         0 N24772  1k TC=0,0 
C_C5         N24772 N06382 100u TC=0
C_C7         N04054 N04234 1u TC=0
R_CCR3         0 N04234  1MEG TC=0,0 
R_CCR4         0 N06382  1MEG TC=0,0 
C_C8         N05738 N05768 1u TC=0
C_C10         N20496 N05768 1u TC=0
R_CCR7         0 N20496  11k TC=0,0 
X_Q3         N05738 N12725 N14651 awb2n3904 PARAMS:                            
+                 
R_CCR6         0 N05768  1MEG TC=0,0 
R_CCR8         0 N08506  1MEG TC=0,0 
R_CCRE1         0 N08506  1k TC=0,0 
X_Q4         N02280 N20496 N08506 awb2n3904 PARAMS:                            
+                 
R_RE1         0 N14651  330 TC=0,0 
C_C11         N08506 N08506 100u TC=0
R_CCR5         N20496 N02280  11k TC=0,0 
R_Rc1         N05738 N02280  6.3k TC=0,0 
R_R3         N12725 N02280  110k TC=0,0 
C_C9         N12725 N06382 1u TC=0
R_R4         0 N12725  10k TC=0,0 
C_C13         N28175 N28167 1u TC=0
R_CCR9         N28175 N02280  11k TC=0,0 
X_Q6         N28119 N28179 N28319 awb2n3904 PARAMS:                            
+                 
R_R5         N28179 N02280  110k TC=0,0 
C_C14         N28179 N08506 1u TC=0
C_C15         N28303 N28303 100u TC=0
R_R6         0 N28179  10k TC=0,0 
R_CCR11         0 N28167  1MEG TC=0,0 
R_CCR10         0 N28175  11k TC=0,0 
R_RE2         0 N28319  330 TC=0,0 
R_Rc2         N28119 N02280  7.5k TC=0,0 
R_CCRE2         0 N28303  1k TC=0,0 
C_C12         N28119 N28167 1u TC=0
R_CCR12         0 N28303  1MEG TC=0,0 
X_Q5         N02280 N28175 N28303 awb2n3904 PARAMS:                            
+                 

**** RESUMING Test1.cir ****
.END

**** 03/14/26 05:37:22 ******* PSpice Lite (March 2016) ******* ID# 10813 ****

 ** Profile: "SCHEMATIC1-Test1"  [ D:\University\Habib\Sem 4\Basic Electronics\Lab\CEP\Project-PSpiceFiles\SCHEMATIC1\Test1.sim ] 


 ****     BJT MODEL PARAMETERS


******************************************************************************




               X_Q1.model4     X_Q2.model4     X_Q3.model4     X_Q4.model4     
               NPN             NPN             NPN             NPN             
       LEVEL    1               1               1               1            
          IS  172.800000E-18  172.800000E-18  172.800000E-18  172.800000E-18 
          EG    1.206           1.206           1.206           1.206        
          BF  254.395         254.395         254.395         254.395        
          NF     .85             .85             .85             .85         
         VAF   10              10              10              10            
         IKF     .016374         .016374         .016374         .016374     
         ISE    9.974460E-15    9.974460E-15    9.974460E-15    9.974460E-15 
          NE    1.20863         1.20863         1.20863         1.20863      
          BR     .1              .1              .1              .1          
          NR     .891964         .891964         .891964         .891964     
         VAR    7.74046         7.74046         7.74046         7.74046      
         IKR     .163741         .163741         .163741         .163741     
         ISC    9.974460E-15    9.974460E-15    9.974460E-15    9.974460E-15 
          NC    2.84343         2.84343         2.84343         2.84343      
         ISS    0               0               0               0            
          RB   28.3394         28.3394         28.3394         28.3394       
         RBM     .01             .01             .01             .01         
         IRB     .01             .01             .01             .01         
          RE    1.339110E-03    1.339110E-03    1.339110E-03    1.339110E-03 
          RC    2.08353         2.08353         2.08353         2.08353      
         CJE    4.566140E-12    4.566140E-12    4.566140E-12    4.566140E-12 
         VJE     .4              .4              .4              .4          
         MJE     .245712         .245712         .245712         .245712     
         CJC    3.724850E-12    3.724850E-12    3.724850E-12    3.724850E-12 
         VJC     .4              .4              .4              .4          
         MJC     .236002         .236002         .236002         .236002     
        XCJC     .8              .8              .8              .8          
         CJS    0               0               0               0            
         VJS     .75             .75             .75             .75         
         MJS     .5              .5              .5              .5          
          FC     .519152         .519152         .519152         .519152     
          TF  481.412000E-12  481.412000E-12  481.412000E-12  481.412000E-12 
         XTF     .9628           .9628           .9628           .9628       
         VTF    9.52193         9.52193         9.52193         9.52193      
         ITF     .011333         .011333         .011333         .011333     
          TR    1.303990E-06    1.303990E-06    1.303990E-06    1.303990E-06 
         XTB    1.20888         1.20888         1.20888         1.20888      
         XTI    1.34879         1.34879         1.34879         1.34879      
          KF    0               0               0               0            
          AF    1               1               1               1            
          CN    2.42            2.42            2.42            2.42         
           D     .87             .87             .87             .87         


               X_Q6.model4     X_Q5.model4     
               NPN             NPN             
       LEVEL    1               1            
          IS  172.800000E-18  172.800000E-18 
          EG    1.206           1.206        
          BF  254.395         254.395        
          NF     .85             .85         
         VAF   10              10            
         IKF     .016374         .016374     
         ISE    9.974460E-15    9.974460E-15 
          NE    1.20863         1.20863      
          BR     .1              .1          
          NR     .891964         .891964     
         VAR    7.74046         7.74046      
         IKR     .163741         .163741     
         ISC    9.974460E-15    9.974460E-15 
          NC    2.84343         2.84343      
         ISS    0               0            
          RB   28.3394         28.3394       
         RBM     .01             .01         
         IRB     .01             .01         
          RE    1.339110E-03    1.339110E-03 
          RC    2.08353         2.08353      
         CJE    4.566140E-12    4.566140E-12 
         VJE     .4              .4          
         MJE     .245712         .245712     
         CJC    3.724850E-12    3.724850E-12 
         VJC     .4              .4          
         MJC     .236002         .236002     
        XCJC     .8              .8          
         CJS    0               0            
         VJS     .75             .75         
         MJS     .5              .5          
          FC     .519152         .519152     
          TF  481.412000E-12  481.412000E-12 
         XTF     .9628           .9628       
         VTF    9.52193         9.52193      
         ITF     .011333         .011333     
          TR    1.303990E-06    1.303990E-06 
         XTB    1.20888         1.20888      
         XTI    1.34879         1.34879      
          KF    0               0            
          AF    1               1            
          CN    2.42            2.42         
           D     .87             .87         


**** 03/14/26 05:37:22 ******* PSpice Lite (March 2016) ******* ID# 10813 ****

 ** Profile: "SCHEMATIC1-Test1"  [ D:\University\Habib\Sem 4\Basic Electronics\Lab\CEP\Project-PSpiceFiles\SCHEMATIC1\Test1.sim ] 


 ****     INITIAL TRANSIENT SOLUTION       TEMPERATURE =   27.000 DEG C


******************************************************************************



 NODE   VOLTAGE     NODE   VOLTAGE     NODE   VOLTAGE     NODE   VOLTAGE


(N00459)    0.0000 (N00530)    8.7641 (N02280)   12.0000 (N04054)    5.7777     

(N04234)    0.0000 (N05738)    6.6321 (N05768)    0.0000 (N06382)    0.0000     

(N08506)    5.1000 (N09511)     .9328 (N10836)     .3033 (N12725)     .9189     

(N14651)     .2841 (N20496)    5.7775 (N24772)    5.1003 (N28119)    5.7101     

(N28167)    0.0000 (N28175)    5.7775 (N28179)     .9157 (N28303)    5.1000     

(N28319)     .2798 




    VOLTAGE SOURCE CURRENTS
    NAME         CURRENT

    V_V3         0.000E+00
    V_V4        -1.965E-02

    TOTAL POWER DISSIPATION   2.36E-01  WATTS



          JOB CONCLUDED

**** 03/14/26 05:37:22 ******* PSpice Lite (March 2016) ******* ID# 10813 ****

 ** Profile: "SCHEMATIC1-Test1"  [ D:\University\Habib\Sem 4\Basic Electronics\Lab\CEP\Project-PSpiceFiles\SCHEMATIC1\Test1.sim ] 


 ****     JOB STATISTICS SUMMARY


******************************************************************************



  Total job time (using Solver 1)   =         .77
